#  HZ   S   DB   R     50.00 
! Rohde & Schwarz Vector Network Analyzer 
! Rohde-Schwarz,ZNC3-2Port,1311600412101323,1.94
! Created: UTC 10/28/2024, 10:01:59 PM
! freq[Hz]                db:S11                  ang:S11
 5.000000000000000E8    -1.297510659780690       3.651568787074474E1
 5.050000000000000E8    -1.289196543524205       3.017398186945380E1
 5.100000000000000E8    -1.277613277765447       2.357546999860425E1
 5.150000000000000E8    -1.280079359598400       1.702131889377191E1
 5.200000000000000E8    -1.266952274015889       1.051542438719460E1
 5.250000000000000E8    -1.287887840002488       3.858680225013849
 5.300000000000000E8    -1.305774122784014      -2.433645752733244
 5.350000000000000E8    -1.330107019306702      -8.702376316400802
 5.400000000000000E8    -1.299713663082678      -1.519125309871866E1
 5.450000000000000E8    -1.301128713122381      -2.180173495737249E1
 5.500000000000000E8    -1.354412526946747      -2.825969255729159E1
 5.550000000000000E8    -1.385149236488328      -3.466870230105641E1
 5.600000000000000E8    -1.397141892781862      -4.111708695200291E1
 5.650000000000000E8    -1.465274647744677      -4.745793582726541E1
 5.700000000000000E8    -1.555644757745170      -5.346806728621107E1
 5.750000000000000E8    -1.499708790004950      -5.942068435020261E1
 5.800000000000000E8    -1.476526999861553      -6.575225120867482E1
 5.850000000000000E8    -1.498692132814834      -7.201617871414582E1
 5.900000000000000E8    -1.492694386649674      -7.863692336396592E1
 5.950000000000000E8    -1.532478567817954      -8.492157452502759E1
 6.000000000000000E8    -1.554510106308055      -9.124818638733449E1
 6.050000000000000E8    -1.569201567127658      -9.783770132413665E1
 6.100000000000000E8    -1.625165126669586      -1.041762550224421E2
 6.150000000000000E8    -1.658825202524883      -1.105043214617159E2
 6.200000000000000E8    -1.662660251249917      -1.171562792450784E2
 6.250000000000000E8    -1.748608765856464      -1.238746868278907E2
 6.300000000000000E8    -1.877072564597905      -1.305653450578647E2
 6.350000000000000E8    -2.024981478283161      -1.366066166363022E2
 6.400000000000000E8    -2.041719329627451      -1.423244354906666E2
 6.450000000000000E8    -2.014557226853379      -1.486719579264104E2
 6.500000000000000E8    -2.073110394781345      -1.553059817095502E2
 6.550000000000000E8    -2.142676605798913      -1.618995969824597E2
 6.600000000000000E8    -2.261927165702971      -1.685092964266040E2
 6.650000000000000E8    -2.314006248715857      -1.746533576252881E2
 6.700000000000000E8    -2.335472348105428       1.790468445557768E2
 6.750000000000000E8    -2.359549369238239       1.723199637574501E2
 6.800000000000000E8    -2.466800568128585       1.660164570929227E2
 6.850000000000000E8    -2.438390950070893       1.595704658259202E2
 6.900000000000000E8    -2.489634425885751       1.524790711140836E2
 6.950000000000000E8    -2.612227589294835       1.460321462921371E2
 7.000000000000000E8    -2.597190050070965       1.394350004547081E2
 7.050000000000000E8    -2.695637824063576       1.324607557117338E2
 7.100000000000000E8    -2.732718547110005       1.261324358846421E2
 7.150000000000000E8    -2.756988911098377       1.191739674109289E2
 7.200000000000000E8    -2.870632924738658       1.125466598550733E2
 7.250000000000000E8    -2.904223040245778       1.058256973305158E2
 7.300000000000000E8    -2.994431917454862       9.910294068396472E1
 7.350000000000000E8    -3.054575655980716       9.253235925337548E1
 7.400000000000000E8    -3.086333201714818       8.664440282209209E1
 7.450000000000000E8    -3.036930821360206       7.937164430931543E1
 7.500000000000000E8    -3.121389414903314       7.311903727343845E1
 7.550000000000000E8    -3.186004112448943       6.599365205521920E1
 7.600000000000000E8    -3.276629400605224       5.986238755180607E1
 7.650000000000000E8    -3.339295288138389       5.397537727391577E1
 7.700000000000000E8    -3.312077238714661       4.797287715040758E1
 7.750000000000000E8    -3.247212666784585       4.152848112905359E1
 7.800000000000000E8    -3.224235435285177       3.468900811241575E1
 7.850000000000000E8    -3.250357328127839       2.832495195483201E1
 7.900000000000000E8    -3.290398026272699       2.179689076756699E1
 7.950000000000000E8    -3.312250351503661       1.543506105669275E1
 8.000000000000000E8    -3.339132585686964       9.210306918352995
 8.050000000000000E8    -3.311874518387214       3.431432984848494
 8.100000000000000E8    -3.321944675076222      -3.140594071930690
 8.150000000000000E8    -3.306639237246751      -9.320723423616698
 8.200000000000000E8    -3.326900203850693      -1.577985350854794E1
 8.250000000000000E8    -3.424009917031384      -2.156672779821206E1
 8.300000000000000E8    -3.422850010553640      -2.746748687816728E1
 8.350000000000000E8    -3.427653785783773      -3.311078373152709E1
 8.400000000000000E8    -3.346250870328381      -3.946310375497373E1
 8.450000000000000E8    -3.460541763959237      -4.583727524007044E1
 8.500000000000000E8    -3.451548735204300      -5.134483913847977E1
 8.550000000000000E8    -3.471179086933654      -5.757469370605005E1
 8.600000000000000E8    -3.540538369705159      -6.366036064921077E1
 8.650000000000000E8    -3.667557253445073      -6.935619763124143E1
 8.700000000000000E8    -3.677514421155992      -7.506538695775645E1
 8.750000000000000E8    -3.801113906880988      -8.016374462228399E1
 8.800000000000000E8    -3.651361172903076      -8.571134178247033E1
 8.850000000000000E8    -3.582684709308189      -9.216581008379934E1
 8.900000000000000E8    -3.622850735560784      -9.862573790063219E1
 8.950000000000000E8    -3.743544053539765      -1.051144424710063E2
 9.000000000000000E8    -3.849597543675347      -1.114815003086932E2
 9.050000000000000E8    -4.021886949720540      -1.172052710862544E2
 9.100000000000000E8    -4.152116488711596      -1.233399056176878E2
 9.150000000000000E8    -4.300873660521624      -1.290772002224777E2
 9.200000000000000E8    -4.379884350035407      -1.347125820437707E2
 9.250000000000000E8    -4.604709101922476      -1.414387305306189E2
 9.300000000000000E8    -4.798711905652786      -1.464634893356671E2
 9.350000000000000E8    -4.904380248513264      -1.511374102418766E2
 9.400000000000000E8    -4.957742310381159      -1.566401289662375E2
 9.450000000000000E8    -4.979960324875428      -1.630934247033731E2
 9.500000000000000E8    -5.128039064880588      -1.693591696524979E2
 9.550000000000000E8    -5.271898389427705      -1.748476166810555E2
 9.600000000000000E8    -5.271561987362754       1.788749032040653E2
 9.650000000000000E8    -5.591315003558273       1.716493825444679E2
 9.700000000000000E8    -5.784952129381821       1.669615544976184E2
 9.750000000000000E8    -5.825969899956625       1.617898465071745E2
 9.800000000000000E8    -5.810004066410567       1.559162969768452E2
 9.850000000000000E8    -5.827813628512036       1.492643060424146E2
 9.900000000000000E8    -5.876687539966508       1.424452181735991E2
 9.950000000000000E8    -6.014110677003758       1.355685799012964E2
 1.000000000000000E9    -6.185192012277284       1.292511206894459E2
 1.005000000000000E9    -6.116607897628680       1.223041407490453E2
 1.010000000000000E9    -6.392828915268234       1.150454999457097E2
 1.015000000000000E9    -6.678727433496849       1.076961291143046E2
 1.020000000000000E9    -6.852585359588720       1.022889852931922E2
 1.025000000000000E9    -7.000492089824780       9.633232285921143E1
 1.030000000000000E9    -7.268846482531864       9.029168242231084E1
 1.035000000000000E9    -7.195144317082301       8.567824162409451E1
 1.040000000000000E9    -7.139957018381021       7.918551782857578E1
 1.045000000000000E9    -7.184884480691705       7.285655164517453E1
 1.050000000000000E9    -7.129513228233440       6.733796193028766E1
 1.055000000000000E9    -6.985787955629740       6.091406182998102E1
 1.060000000000000E9    -6.929670988669033       5.437162456371400E1
 1.065000000000000E9    -6.695051814720849       4.714468517386070E1
 1.070000000000000E9    -6.815834753568261       3.922425705831898E1
 1.075000000000000E9    -7.037908820556895       3.332489709502320E1
 1.080000000000000E9    -6.944133040188090       2.735674465015498E1
 1.085000000000000E9    -6.948096299943607       2.120367552384335E1
 1.090000000000000E9    -7.003092579312843       1.472928127429683E1
 1.095000000000000E9    -7.159266266213583       9.238577122525516
 1.100000000000000E9    -7.089874945605311       4.898040223961579
 1.105000000000000E9    -6.879141104887337       6.712436946203888E-1
 1.110000000000000E9    -6.469855240291115      -6.728132343628553
 1.115000000000000E9    -6.588169393519967      -1.316578321222285E1
 1.120000000000000E9    -6.524830805591831      -1.878022644961038E1
 1.125000000000000E9    -6.493737494648515      -2.496862072068729E1
 1.130000000000000E9    -6.432771879614524      -3.050496721242427E1
 1.135000000000000E9    -6.368854242559015      -3.584468837610817E1
 1.140000000000000E9    -6.273130300967794      -4.163372086982876E1
 1.145000000000000E9    -6.243748502208129      -4.755139341265882E1
 1.150000000000000E9    -6.295070428890770      -5.333448176201718E1
 1.155000000000000E9    -6.312050027991216      -5.884173225060579E1
 1.160000000000000E9    -6.380828288388348      -6.453023949318825E1
 1.165000000000000E9    -6.470186335933509      -6.872688802565013E1
 1.170000000000000E9    -6.374554879908901      -7.429342489390247E1
 1.175000000000000E9    -6.501933081505706      -7.955640988889699E1
 1.180000000000000E9    -6.530362226087910      -8.305032245343287E1
 1.185000000000000E9    -6.367248320493729      -8.914127518984294E1
 1.190000000000000E9    -6.611832296332622      -9.384517897656831E1
 1.195000000000000E9    -6.490187720579024      -9.774927320069679E1
 1.200000000000000E9    -6.427229621598372      -1.034689613560818E2
 1.205000000000000E9    -6.481294703713022      -1.083355032123309E2
 1.210000000000000E9    -6.496508768449971      -1.139762949320077E2
 1.215000000000000E9    -6.524825794142557      -1.183286218870725E2
 1.220000000000000E9    -6.503647185914971      -1.236844678791881E2
 1.225000000000000E9    -6.483577846328804      -1.292400493991039E2
 1.230000000000000E9    -6.641802452184926      -1.353695798449790E2
 1.235000000000000E9    -6.937778039063666      -1.403363987939515E2
 1.240000000000000E9    -6.958089434108171      -1.445378543233256E2
 1.245000000000000E9    -7.052252611733156      -1.491374633752179E2
 1.250000000000000E9    -6.994382529970923      -1.546970087663000E2
 1.255000000000000E9    -7.131372917212840      -1.609382883097233E2
 1.260000000000000E9    -7.305169367944213      -1.657089981626338E2
 1.265000000000000E9    -7.408084997491709      -1.710958869273860E2
 1.270000000000000E9    -7.571205297537576      -1.759787680902683E2
 1.275000000000000E9    -7.612626959803328       1.781160350725824E2
 1.280000000000000E9    -7.771237740514602       1.732576828415162E2
 1.285000000000000E9    -7.828250435919064       1.675891172597019E2
 1.290000000000000E9    -7.812494117985127       1.611280070435532E2
 1.295000000000000E9    -8.050161587913570       1.554239846637274E2
 1.300000000000000E9    -7.980032509030933       1.492009885768239E2
 1.305000000000000E9    -8.274698504542203       1.428731017488172E2
 1.310000000000000E9    -8.351721421640164       1.368337478757884E2
 1.315000000000000E9    -8.436141671175648       1.307125237351212E2
 1.320000000000000E9    -8.488097806131503       1.238188798115142E2
 1.325000000000000E9    -8.540679210597792       1.173465508389468E2
 1.330000000000000E9    -8.649632185687672       1.091654333904128E2
 1.335000000000000E9    -9.083448888294862       1.032270052707531E2
 1.340000000000000E9    -8.940912871943137       9.694784930975649E1
 1.345000000000000E9    -9.118213378312754       9.055659888541773E1
 1.350000000000000E9    -8.957723302155408       8.386592735035512E1
 1.355000000000000E9    -8.985528123370292       7.661919814041799E1
 1.360000000000000E9    -8.828790908478924       6.935610527911527E1
 1.365000000000000E9    -9.019744586861068       6.068890941326722E1
 1.370000000000000E9    -9.209031664110988       5.438739181461918E1
 1.375000000000000E9    -9.260012361891816       4.859207646246395E1
 1.380000000000000E9    -9.227465358111321       4.433707929869483E1
 1.385000000000000E9    -8.548251559347683       3.754279555447399E1
 1.390000000000000E9    -8.642793543906823       2.845542846752162E1
 1.395000000000000E9    -8.496763171078998       2.367482968552444E1
 1.400000000000000E9    -8.179015257951692       1.740775753091156E1
 1.405000000000000E9    -7.886532899128026       9.630033106519266
 1.410000000000000E9    -7.798366832549454       1.474811401107599
 1.415000000000000E9    -7.761163690588258      -4.941196414373915
 1.420000000000000E9    -7.725384682691682      -1.156308965819341E1
 1.425000000000000E9    -7.630216167485400      -1.751849772877674E1
 1.430000000000000E9    -7.492723320695260      -2.321089895439396E1
 1.435000000000000E9    -7.399436935497428      -2.842564084187798E1
 1.440000000000000E9    -7.260961527200699      -3.412961525394610E1
 1.445000000000000E9    -7.083349852756590      -3.944408159086111E1
 1.450000000000000E9    -6.827086363522216      -4.536717841505901E1
 1.455000000000000E9    -6.770878870676463      -5.150290615115591E1
 1.460000000000000E9    -6.620943144588799      -5.708040762057681E1
 1.465000000000000E9    -6.552877069944270      -6.281978717721970E1
 1.470000000000000E9    -6.440866402886869      -6.782394174354477E1
 1.475000000000000E9    -6.421951344621707      -7.432768090931046E1
 1.480000000000000E9    -6.444866863907795      -7.869056093423649E1
 1.485000000000000E9    -6.354259131115878      -8.445171015365575E1
 1.490000000000000E9    -6.485047363321551      -8.952782219476140E1
 1.495000000000000E9    -6.515871781860639      -9.408395673665102E1
 1.500000000000000E9    -6.478879690955064      -9.822538387143406E1
