#  HZ   S   RI   R     50.00 
! Rohde & Schwarz Vector Network Analyzer 
! Rohde-Schwarz,ZNC3-2Port,1311600412101323,1.94
! Created: UTC 10/28/2024, 10:04:11 PM
! freq[Hz]                re:S11                  im:S11
 5.000000000000000E8     7.017402234390571E-1    5.153262578729538E-1
 5.050000000000000E8     7.569872480554107E-1    4.323706441020865E-1
 5.100000000000000E8     8.003581234500244E-1    3.409877252044665E-1
 5.150000000000000E8     8.372537282320630E-1    2.472735417296458E-1
 5.200000000000000E8     8.583251858141313E-1    1.460530188402264E-1
 5.250000000000000E8     8.659112748895663E-1    4.388661887750606E-2
 5.300000000000000E8     8.578129084846451E-1   -5.014911866315697E-2
 5.350000000000000E8     8.464618965745558E-1   -1.405938031753574E-1
 5.400000000000000E8     8.282031578606678E-1   -2.369764427589967E-1
 5.450000000000000E8     7.938271086333998E-1   -3.289192983099013E-1
 5.500000000000000E8     7.490272170121778E-1   -4.133863729865458E-1
 5.550000000000000E8     6.950346653921689E-1   -4.918984626253574E-1
 5.600000000000000E8     6.352269683168336E-1   -5.638532816648024E-1
 5.650000000000000E8     5.664483044706170E-1   -6.270178675449447E-1
 5.700000000000000E8     4.934138673470461E-1   -6.800287264410052E-1
 5.750000000000000E8     4.197038320257307E-1   -7.308322312301721E-1
 5.800000000000000E8     3.357153572112384E-1   -7.710699165431307E-1
 5.850000000000000E8     2.480043709738460E-1   -8.006450962325871E-1
 5.900000000000000E8     1.539928575641723E-1   -8.241021438724511E-1
 5.950000000000000E8     6.384105721434356E-2   -8.300015251417304E-1
 6.000000000000000E8    -2.709036230756693E-2   -8.311897530654111E-1
 6.050000000000000E8    -1.197337728856058E-1   -8.184085096215112E-1
 6.100000000000000E8    -2.084776589377437E-1   -7.968792931654684E-1
 6.150000000000000E8    -2.956580615432512E-1   -7.631542988647800E-1
 6.200000000000000E8    -3.754997383260093E-1   -7.196223075060586E-1
 6.250000000000000E8    -4.475162013512172E-1   -6.655028089172551E-1
 6.300000000000000E8    -5.120219710048333E-1   -6.105196937932910E-1
 6.350000000000000E8    -5.695850766694837E-1   -5.469070664654561E-1
 6.400000000000000E8    -6.241273915455854E-1   -4.885427487492489E-1
 6.450000000000000E8    -6.795098190274415E-1   -4.106711001882709E-1
 6.500000000000000E8    -7.160467651411117E-1   -3.230922880958620E-1
 6.550000000000000E8    -7.343183717820788E-1   -2.465133690007745E-1
 6.600000000000000E8    -7.584982058911464E-1   -1.594494783374694E-1
 6.650000000000000E8    -7.682877368735535E-1   -7.458001786616801E-2
 6.700000000000000E8    -7.706941994649141E-1    1.618488227123338E-2
 6.750000000000000E8    -7.624344889074934E-1    1.055791801269346E-1
 6.800000000000000E8    -7.375689557723727E-1    1.947699460768064E-1
 6.850000000000000E8    -7.037626747213656E-1    2.781775037718706E-1
 6.900000000000000E8    -6.568901524377661E-1    3.581943235161563E-1
 6.950000000000000E8    -6.012739239742458E-1    4.224665119277918E-1
 7.000000000000000E8    -5.450760261671230E-1    4.812628145111679E-1
 7.050000000000000E8    -4.843801786772228E-1    5.321824621398534E-1
 7.100000000000000E8    -4.237614782912815E-1    5.823819981581808E-1
 7.150000000000000E8    -3.495344831384150E-1    6.276394321593966E-1
 7.200000000000000E8    -2.745401830190504E-1    6.536508216936258E-1
 7.250000000000000E8    -1.973249571684557E-1    6.832545313896609E-1
 7.300000000000000E8    -1.148378924472548E-1    6.936498757644984E-1
 7.350000000000000E8    -3.895464266631333E-2    7.026339650571437E-1
 7.400000000000000E8     3.932891939431980E-2    6.998546729054288E-1
 7.450000000000000E8     1.215849924675819E-1    6.912101590156786E-1
 7.500000000000000E8     1.981479289572200E-1    6.775796289606587E-1
 7.550000000000000E8     2.823240560865367E-1    6.441151035382453E-1
 7.600000000000000E8     3.505945961728769E-1    6.005436322325379E-1
 7.650000000000000E8     4.115878586188914E-1    5.576228491008910E-1
 7.700000000000000E8     4.688925110692095E-1    5.090875024737929E-1
 7.750000000000000E8     5.284366312259538E-1    4.528365568538274E-1
 7.800000000000000E8     5.742977682849387E-1    3.855713577757899E-1
 7.850000000000000E8     6.158972506603662E-1    3.152900941724510E-1
 7.900000000000000E8     6.387349114106138E-1    2.394791189068699E-1
 7.950000000000000E8     6.512961496806748E-1    1.705917816289660E-1
 8.000000000000000E8     6.644840786709303E-1    9.833528501152616E-2
 8.050000000000000E8     6.663806120172821E-1    4.060670869103100E-2
 8.100000000000000E8     6.728029417627818E-1   -3.097108567567214E-2
 8.150000000000000E8     6.729711805502625E-1   -9.708091565589250E-2
 8.200000000000000E8     6.631266715843276E-1   -1.810747046785758E-1
 8.250000000000000E8     6.370345203583778E-1   -2.489032677973438E-1
 8.300000000000000E8     6.081966267952557E-1   -3.223294766619924E-1
 8.350000000000000E8     5.592637047181479E-1   -3.846386085134196E-1
 8.400000000000000E8     5.148740028090657E-1   -4.352277789507661E-1
 8.450000000000000E8     4.638800724259515E-1   -4.855359678676670E-1
 8.500000000000000E8     4.078674138571986E-1   -5.257549379832649E-1
 8.550000000000000E8     3.483919328020242E-1   -5.609640849805230E-1
 8.600000000000000E8     2.876483808816675E-1   -5.881852975749389E-1
 8.650000000000000E8     2.307386198222973E-1   -6.033396543321494E-1
 8.700000000000000E8     1.767889763258009E-1   -6.273608940503715E-1
 8.750000000000000E8     1.058761366050005E-1   -6.468611624916066E-1
 8.800000000000000E8     3.730975926777835E-2   -6.499549689695682E-1
 8.850000000000000E8    -3.161709818429500E-2   -6.470400382157140E-1
 8.900000000000000E8    -9.881000974476875E-2   -6.409765435640478E-1
 8.950000000000000E8    -1.683904846013355E-1   -6.128898541151102E-1
 9.000000000000000E8    -2.302117691050540E-1   -5.828784401725200E-1
 9.050000000000000E8    -2.778021413913123E-1   -5.386116497353800E-1
 9.100000000000000E8    -3.169992522830025E-1   -5.107888102940954E-1
 9.150000000000000E8    -3.627160941281563E-1   -4.735795559374084E-1
 9.200000000000000E8    -4.071340304460916E-1   -4.336910267379687E-1
 9.250000000000000E8    -4.356547387903160E-1   -3.837400529858963E-1
 9.300000000000000E8    -4.668400269013720E-1   -3.418323284473521E-1
 9.350000000000000E8    -5.039758331667575E-1   -2.986512408256709E-1
 9.400000000000000E8    -5.326146713669249E-1   -2.408703127967409E-1
 9.450000000000000E8    -5.502576870473153E-1   -1.688449330558049E-1
 9.500000000000000E8    -5.538366438736616E-1   -1.087386731889249E-1
 9.550000000000000E8    -5.569799169950174E-1   -3.912589599548554E-2
 9.600000000000000E8    -5.356632800883665E-1    2.051905528027803E-2
 9.650000000000000E8    -5.182855140916198E-1    6.479894986370616E-2
 9.700000000000000E8    -5.037270990429987E-1    1.097023071352674E-1
 9.750000000000000E8    -4.937890254463407E-1    1.612029153077893E-1
 9.800000000000000E8    -4.700459463322312E-1    2.155737815452830E-1
 9.850000000000000E8    -4.379121773478673E-1    2.641990093799592E-1
 9.900000000000000E8    -3.892110026189788E-1    3.089789724189218E-1
 9.950000000000000E8    -3.581511674493152E-1    3.364618897114196E-1
 1.000000000000000E9    -3.134266581376800E-1    3.710587018593053E-1
 1.005000000000000E9    -2.692173495747144E-1    4.055471498054243E-1
 1.010000000000000E9    -2.075340979926832E-1    4.204846086399769E-1
 1.015000000000000E9    -1.772510977302779E-1    4.280372823935401E-1
 1.020000000000000E9    -1.270043681561002E-1    4.570141140461221E-1
 1.025000000000000E9    -6.631460891658654E-2    4.640174786182301E-1
 1.030000000000000E9    -9.073155913534189E-3    4.575572258204485E-1
 1.035000000000000E9     3.246280688241952E-2    4.552532902610052E-1
 1.040000000000000E9     8.184032210479202E-2    4.577056789816055E-1
 1.045000000000000E9     1.493648500673078E-1    4.456997577596291E-1
 1.050000000000000E9     1.876727986712721E-1    4.129506595590228E-1
 1.055000000000000E9     2.393051657448163E-1    3.925634205876244E-1
 1.060000000000000E9     2.791739032209013E-1    3.599587629574622E-1
 1.065000000000000E9     3.143032393977634E-1    3.290236463658919E-1
 1.070000000000000E9     3.535437481633699E-1    2.908722032272277E-1
 1.075000000000000E9     3.749543202899742E-1    2.474386520682729E-1
 1.080000000000000E9     4.044787520451815E-1    2.117577373397404E-1
 1.085000000000000E9     4.275670226975114E-1    1.645396461538704E-1
 1.090000000000000E9     4.413897931648411E-1    1.173097729786554E-1
 1.095000000000000E9     4.506249024002092E-1    7.033369330271853E-2
 1.100000000000000E9     4.577099555648646E-1    2.085124885203972E-2
 1.105000000000000E9     4.552398922281030E-1   -1.566508683411562E-2
 1.110000000000000E9     4.564391858392554E-1   -6.445677834211945E-2
 1.115000000000000E9     4.477431748651865E-1   -1.089154866912728E-1
 1.120000000000000E9     4.398918114122220E-1   -1.560620101623705E-1
 1.125000000000000E9     4.169738857606919E-1   -1.882803711173630E-1
 1.130000000000000E9     4.138504673211078E-1   -2.263498098474341E-1
 1.135000000000000E9     3.966032070373901E-1   -2.697581994758042E-1
 1.140000000000000E9     3.720950406552824E-1   -3.201557355962942E-1
 1.145000000000000E9     3.384003355929014E-1   -3.587978004193957E-1
 1.150000000000000E9     2.963404610153830E-1   -3.891728948631737E-1
 1.155000000000000E9     2.570839976192458E-1   -4.143272773308576E-1
 1.160000000000000E9     2.173739672763504E-1   -4.310099110094250E-1
 1.165000000000000E9     1.790765337160814E-1   -4.480795933731736E-1
 1.170000000000000E9     1.399257186183603E-1   -4.599655105266217E-1
 1.175000000000000E9     1.084234651614583E-1   -4.768843089366158E-1
 1.180000000000000E9     5.579617427008789E-2   -4.876264863549486E-1
 1.185000000000000E9     6.357578427404255E-3   -4.882306269553777E-1
 1.190000000000000E9    -2.331851942729997E-2   -4.766947686042061E-1
 1.195000000000000E9    -6.575955805811294E-2   -4.916496377129817E-1
 1.200000000000000E9    -1.218567195687347E-1   -4.761649203349315E-1
 1.205000000000000E9    -1.582622202682391E-1   -4.606886006312253E-1
 1.210000000000000E9    -2.016994731131957E-1   -4.427074553843608E-1
 1.215000000000000E9    -2.411256518136130E-1   -4.162261017889187E-1
 1.220000000000000E9    -2.677810975250289E-1   -3.866756675024846E-1
 1.225000000000000E9    -2.980055708649995E-1   -3.628619107701755E-1
 1.230000000000000E9    -3.320213457559348E-1   -3.330286270404431E-1
 1.235000000000000E9    -3.562865757656598E-1   -2.962341558715689E-1
 1.240000000000000E9    -3.769509267681316E-1   -2.592665502981636E-1
 1.245000000000000E9    -3.935716987755442E-1   -2.215990721334338E-1
 1.250000000000000E9    -4.026724997591014E-1   -1.868861934267149E-1
 1.255000000000000E9    -4.238936347194708E-1   -1.510949691164013E-1
 1.260000000000000E9    -4.261178830551780E-1   -1.056289970273871E-1
 1.265000000000000E9    -4.353481676762780E-1   -6.359538235015627E-2
 1.270000000000000E9    -4.327782971454232E-1   -1.865547341879119E-2
 1.275000000000000E9    -4.225296485523757E-1    2.663421308511335E-2
 1.280000000000000E9    -4.128199568585188E-1    6.398114118148485E-2
 1.285000000000000E9    -3.995944318678056E-1    1.061300080978919E-1
 1.290000000000000E9    -3.782465993195506E-1    1.484188101153640E-1
 1.295000000000000E9    -3.478789713634106E-1    1.802668015535590E-1
 1.300000000000000E9    -3.190182850383416E-1    2.059281599774019E-1
 1.305000000000000E9    -3.025506232616413E-1    2.254378920176210E-1
 1.310000000000000E9    -2.779862253643496E-1    2.586944565676572E-1
 1.315000000000000E9    -2.501235463347890E-1    2.857441742442978E-1
 1.320000000000000E9    -2.165150526478875E-1    3.169987523619450E-1
 1.325000000000000E9    -1.716669218025326E-1    3.400352307006828E-1
 1.330000000000000E9    -1.259607618519937E-1    3.621314587752622E-1
 1.335000000000000E9    -7.113802802778199E-2    3.613883553638733E-1
 1.340000000000000E9    -3.032273044524857E-2    3.651693088801135E-1
 1.345000000000000E9     1.276236758531225E-2    3.572684831768291E-1
 1.350000000000000E9     5.722519541582415E-2    3.524281716028661E-1
 1.355000000000000E9     9.712752479184623E-2    3.401323149465533E-1
 1.360000000000000E9     1.360367193842753E-1    3.262952841981308E-1
 1.365000000000000E9     1.792994906102175E-1    3.030781025608775E-1
 1.370000000000000E9     2.010345041274473E-1    2.829561073008550E-1
 1.375000000000000E9     2.387707628953442E-1    2.618131367701511E-1
 1.380000000000000E9     2.736820096125006E-1    2.360853603194349E-1
 1.385000000000000E9     3.018443780901722E-1    2.047942378027598E-1
 1.390000000000000E9     3.238464987145583E-1    1.705679991528896E-1
 1.395000000000000E9     3.550351861758040E-1    1.439368888522276E-1
 1.400000000000000E9     3.843085735894354E-1    9.114779169251247E-2
 1.405000000000000E9     3.847185617145340E-1    4.536460705557291E-2
 1.410000000000000E9     3.986378790894429E-1    5.322927301814694E-3
 1.415000000000000E9     4.002246033985800E-1   -4.619191989218466E-2
 1.420000000000000E9     3.905445042442812E-1   -9.049969777370749E-2
 1.425000000000000E9     3.828212531149022E-1   -1.269609535225494E-1
 1.430000000000000E9     3.710493703069204E-1   -1.635156507040928E-1
 1.435000000000000E9     3.615138408275765E-1   -1.944035945517712E-1
 1.440000000000000E9     3.577953635523645E-1   -2.346338322757282E-1
 1.445000000000000E9     3.373482647061253E-1   -2.782522261850000E-1
 1.450000000000000E9     3.099534004606729E-1   -3.152371928207266E-1
 1.455000000000000E9     2.871901360855452E-1   -3.486812571361949E-1
 1.460000000000000E9     2.559618558447012E-1   -3.814839004836476E-1
 1.465000000000000E9     2.170808751930262E-1   -4.084229353702753E-1
 1.470000000000000E9     1.799950203461951E-1   -4.289723544325930E-1
 1.475000000000000E9     1.494440570298194E-1   -4.502419386635604E-1
 1.480000000000000E9     1.017735252519844E-1   -4.712403686770660E-1
 1.485000000000000E9     5.436823675085842E-2   -4.751247888424353E-1
 1.490000000000000E9     1.612563947149845E-2   -4.765169313152570E-1
 1.495000000000000E9    -1.907973086317757E-2   -4.790637713905369E-1
 1.500000000000000E9    -6.321510269410391E-2   -4.804257299586092E-1
