#  HZ   S   RI   R     50.00 
! Rohde & Schwarz Vector Network Analyzer 
! Rohde-Schwarz,ZNC3-2Port,1311600412101323,1.94
! Created: UTC 10/28/2024, 10:09:48 PM
! freq[Hz]                re:S11                  im:S11
 5.000000000000000E8     4.583003642323473E-1    8.157750973475386E-1
 5.050000000000000E8     4.790879235736788E-1    8.038302762695792E-1
 5.100000000000000E8     4.982791879249262E-1    7.898703159311582E-1
 5.150000000000000E8     5.200035620546727E-1    7.749827852943418E-1
 5.200000000000000E8     5.362591963380711E-1    7.555904591191729E-1
 5.250000000000000E8     5.495075895256849E-1    7.414797536771789E-1
 5.300000000000000E8     5.659934534436233E-1    7.250016594242420E-1
 5.350000000000000E8     5.811550605224026E-1    7.089154585844877E-1
 5.400000000000000E8     6.003130919746577E-1    6.926918473061919E-1
 5.450000000000000E8     6.159052562952074E-1    6.713217947438870E-1
 5.500000000000000E8     6.251544447869698E-1    6.527640662219367E-1
 5.550000000000000E8     6.392056674649105E-1    6.340149983616464E-1
 5.600000000000000E8     6.508146897367728E-1    6.134736272478096E-1
 5.650000000000000E8     6.579158424121299E-1    5.932884877026525E-1
 5.700000000000000E8     6.698556294926377E-1    5.764046023078856E-1
 5.750000000000000E8     6.811669868556923E-1    5.578348907916908E-1
 5.800000000000000E8     6.892174009081430E-1    5.368151755169985E-1
 5.850000000000000E8     7.013923862739656E-1    5.159192930931034E-1
 5.900000000000000E8     7.084596004198021E-1    4.914463409796449E-1
 5.950000000000000E8     7.171362798803821E-1    4.687701169919787E-1
 6.000000000000000E8     7.193516539492828E-1    4.431113508746527E-1
 6.050000000000000E8     7.218918294394556E-1    4.216590754582438E-1
 6.100000000000000E8     7.241953443137038E-1    3.961957348483162E-1
 6.150000000000000E8     7.213438617626021E-1    3.788510429519478E-1
 6.200000000000000E8     7.276485947161284E-1    3.596440680680326E-1
 6.250000000000000E8     7.251583072081876E-1    3.342967316431577E-1
 6.300000000000000E8     7.238417225897683E-1    3.101522463976159E-1
 6.350000000000000E8     7.147943539871926E-1    2.922717466655656E-1
 6.400000000000000E8     7.057277891997291E-1    2.752744671840512E-1
 6.450000000000000E8     7.050431558956394E-1    2.682890166305982E-1
 6.500000000000000E8     7.095333069485883E-1    2.473345437673607E-1
 6.550000000000000E8     7.004893755846200E-1    2.258393669254006E-1
 6.600000000000000E8     6.940484447789024E-1    2.058890109893780E-1
 6.650000000000000E8     6.828663193025782E-1    1.953457903682493E-1
 6.700000000000000E8     6.704944991813503E-1    1.831718964587603E-1
 6.750000000000000E8     6.693122999642459E-1    1.828067396971509E-1
 6.800000000000000E8     6.684288276382869E-1    1.606908814736400E-1
 6.850000000000000E8     6.589303082256803E-1    1.550305210612778E-1
 6.900000000000000E8     6.603918223790104E-1    1.375511894405844E-1
 6.950000000000000E8     6.472009359599473E-1    1.208939541646509E-1
 7.000000000000000E8     6.387126660800452E-1    1.072450302511680E-1
 7.050000000000000E8     6.114925847028347E-1    1.086531512605743E-1
 7.100000000000000E8     6.144718896123756E-1    1.113207146070107E-1
 7.150000000000000E8     6.158068935449311E-1    1.094570133315307E-1
 7.200000000000000E8     6.109973020171577E-1    9.123314053804348E-2
 7.250000000000000E8     5.943830032401946E-1    8.794921002511597E-2
 7.300000000000000E8     5.836632360255950E-1    9.006849479684025E-2
 7.350000000000000E8     5.815434962711514E-1    9.611499296266239E-2
 7.400000000000000E8     5.879394951661933E-1    9.549023119938715E-2
 7.450000000000000E8     5.890678493658241E-1    8.847082418793663E-2
 7.500000000000000E8     5.838090463423952E-1    9.321985095016729E-2
 7.550000000000000E8     5.868035818597333E-1    9.253648401821257E-2
 7.600000000000000E8     5.870272534251850E-1    9.026447491194592E-2
 7.650000000000000E8     5.963923768803999E-1    8.858508310768701E-2
 7.700000000000000E8     6.018044425987625E-1    8.300975606895404E-2
 7.750000000000000E8     6.094549025005236E-1    8.287359946632326E-2
 7.800000000000000E8     6.126915705392911E-1    6.939755368540153E-2
 7.850000000000000E8     6.114522883015816E-1    6.437777604173525E-2
 7.900000000000000E8     6.149241367945526E-1    5.876888119592515E-2
 7.950000000000000E8     6.228274075244757E-1    6.010318718649022E-2
 8.000000000000000E8     6.339522925986544E-1    4.975751595482748E-2
 8.050000000000000E8     6.386923290682888E-1    4.410421959807260E-2
 8.100000000000000E8     6.468417307427856E-1    3.539249558718379E-2
 8.150000000000000E8     6.517038251404065E-1    2.394373282740312E-2
 8.200000000000000E8     6.662748627125552E-1    1.792274467731991E-2
 8.250000000000000E8     6.732859546153410E-1   -1.226415016680949E-3
 8.300000000000000E8     6.783727641559034E-1   -1.515943050042038E-2
 8.350000000000000E8     6.859773440328824E-1   -2.407382979315152E-2
 8.400000000000000E8     6.918677822564390E-1   -3.900130870504290E-2
 8.450000000000000E8     7.018957977270132E-1   -5.945798824513623E-2
 8.500000000000000E8     7.056448441048040E-1   -7.696379636602779E-2
 8.550000000000000E8     7.063786988076282E-1   -9.340455933610303E-2
 8.600000000000000E8     7.099410365088018E-1   -1.178677429809308E-1
 8.650000000000000E8     7.080740650903944E-1   -1.338534203680844E-1
 8.700000000000000E8     7.097202002656826E-1   -1.524439270639073E-1
 8.750000000000000E8     7.071451070136990E-1   -1.701943398451133E-1
 8.800000000000000E8     7.078383505345369E-1   -1.883389724515692E-1
 8.850000000000000E8     7.107853091136771E-1   -2.083804533741626E-1
 8.900000000000000E8     7.112693180667687E-1   -2.352043174939594E-1
 8.950000000000000E8     6.972804902560040E-1   -2.565945945164462E-1
 9.000000000000000E8     6.900510423475688E-1   -2.701465382318112E-1
 9.050000000000000E8     6.893000279440549E-1   -2.913244162012993E-1
 9.100000000000000E8     6.807964265561105E-1   -3.093176389239899E-1
 9.150000000000000E8     6.807692773724982E-1   -3.293716259444268E-1
 9.200000000000000E8     6.761471449763689E-1   -3.569052461165991E-1
 9.250000000000000E8     6.613503119289144E-1   -3.790492799459923E-1
 9.300000000000000E8     6.482086816994204E-1   -4.012389973211266E-1
 9.350000000000000E8     6.350680485985325E-1   -4.243684176754082E-1
 9.400000000000000E8     6.169118507050635E-1   -4.463522527986792E-1
 9.450000000000000E8     6.002657587267491E-1   -4.593249613126322E-1
 9.500000000000000E8     5.860453898243307E-1   -4.771487684335440E-1
 9.550000000000000E8     5.699505459046282E-1   -4.966236120515631E-1
 9.600000000000000E8     5.500677803571510E-1   -5.154381746387506E-1
 9.650000000000000E8     5.261989199848363E-1   -5.303434180995645E-1
 9.700000000000000E8     5.052964226168734E-1   -5.431244333518669E-1
 9.750000000000000E8     4.839274763123628E-1   -5.547542035973464E-1
 9.800000000000000E8     4.648819427001930E-1   -5.624188977448742E-1
 9.850000000000000E8     4.504961992439425E-1   -5.748222496842482E-1
 9.900000000000000E8     4.300436393255303E-1   -5.927856053582861E-1
 9.950000000000000E8     3.985781435370298E-1   -6.073498654349615E-1
 1.000000000000000E9     3.728597143126514E-1   -6.143143838171058E-1
 1.005000000000000E9     3.474393116762337E-1   -6.208860256794867E-1
 1.010000000000000E9     3.193478547877278E-1   -6.226735086104114E-1
 1.015000000000000E9     2.962604631018450E-1   -6.278257195530310E-1
 1.020000000000000E9     2.694476574673422E-1   -6.359940229970339E-1
 1.025000000000000E9     2.394581061227714E-1   -6.306160201780178E-1
 1.030000000000000E9     2.127714598433677E-1   -6.276688052859377E-1
 1.035000000000000E9     1.873061923249824E-1   -6.249696288571983E-1
 1.040000000000000E9     1.688017175342162E-1   -6.182590463055068E-1
 1.045000000000000E9     1.388824421250735E-1   -6.160303273693232E-1
 1.050000000000000E9     1.109024963291897E-1   -6.047453635262394E-1
 1.055000000000000E9     9.630483049558840E-2   -5.927209949614071E-1
 1.060000000000000E9     7.078572411972842E-2   -5.826570795434911E-1
 1.065000000000000E9     5.134480270390048E-2   -5.703120858957432E-1
 1.070000000000000E9     3.175237616974137E-2   -5.571006051746990E-1
 1.075000000000000E9     1.210598718032608E-2   -5.475313617095643E-1
 1.080000000000000E9    -1.607686275681713E-3   -5.277747378054472E-1
 1.085000000000000E9    -2.380032998179929E-2   -5.118877184403468E-1
 1.090000000000000E9    -3.333733888875311E-2   -4.960130981260087E-1
 1.095000000000000E9    -4.688891658195313E-2   -4.778067501920781E-1
 1.100000000000000E9    -5.566895787877155E-2   -4.498155774054253E-1
 1.105000000000000E9    -5.356284457654736E-2   -4.411159149112979E-1
 1.110000000000000E9    -6.823348417225317E-2   -4.373006286941616E-1
 1.115000000000000E9    -8.605402723615724E-2   -4.106121438533023E-1
 1.120000000000000E9    -8.668914090313835E-2   -3.752171737574095E-1
 1.125000000000000E9    -7.482837724513262E-2   -3.677007592425681E-1
 1.130000000000000E9    -7.066889095619199E-2   -3.557248743898741E-1
 1.135000000000000E9    -7.277600835077452E-2   -3.474879900512851E-1
 1.140000000000000E9    -8.502697251477344E-2   -3.360969575289832E-1
 1.145000000000000E9    -8.461522845476999E-2   -3.194549575506452E-1
 1.150000000000000E9    -8.608950292438497E-2   -2.904809578231756E-1
 1.155000000000000E9    -7.207483312832841E-2   -2.769117198325400E-1
 1.160000000000000E9    -6.185985792514773E-2   -2.588095557030053E-1
 1.165000000000000E9    -3.870817786946485E-2   -2.570442130439816E-1
 1.170000000000000E9    -3.499669772944231E-2   -2.572489766658574E-1
 1.175000000000000E9    -2.462882624796774E-2   -2.652873160263073E-1
 1.180000000000000E9    -3.140570459866308E-2   -2.573456639917801E-1
 1.185000000000000E9    -3.421223867864048E-2   -2.465321393541842E-1
 1.190000000000000E9    -7.165075659184912E-3   -2.420895329278572E-1
 1.195000000000000E9    -1.365850778307990E-2   -2.510435953070669E-1
 1.200000000000000E9    -1.195798802407632E-2   -2.402462013265223E-1
 1.205000000000000E9    -2.507951131602792E-5   -2.438589510161356E-1
 1.210000000000000E9     1.482476045048998E-3   -2.505961886224356E-1
 1.215000000000000E9    -1.302083513133914E-3   -2.373284387419845E-1
 1.220000000000000E9     1.119214584120046E-2   -2.379730000121779E-1
 1.225000000000000E9     1.639162621819070E-2   -2.300417329576721E-1
 1.230000000000000E9     3.619937927697493E-2   -2.378899246917272E-1
 1.235000000000000E9     4.638554529816526E-2   -2.553355380634813E-1
 1.240000000000000E9     3.477171675126681E-2   -2.696877180302123E-1
 1.245000000000000E9     2.786673646582310E-2   -2.674098910800815E-1
 1.250000000000000E9     3.174329089750821E-2   -2.686109155069679E-1
 1.255000000000000E9     3.449590577427066E-2   -2.765307625230841E-1
 1.260000000000000E9     3.378555284696293E-2   -2.799668384226766E-1
 1.265000000000000E9     3.416864029134212E-2   -2.945282090763687E-1
 1.270000000000000E9     2.544074316213616E-2   -3.021047463938854E-1
 1.275000000000000E9     1.723724351901984E-2   -3.098172450094215E-1
 1.280000000000000E9     9.316090611767491E-4   -3.054611293912183E-1
 1.285000000000000E9     9.189383578435380E-4   -3.017473093773251E-1
 1.290000000000000E9     1.362068462665669E-3   -2.978087238181937E-1
 1.295000000000000E9     1.570033790733609E-2   -3.110883914045426E-1
 1.300000000000000E9    -6.021925951182045E-3   -3.217856788791549E-1
 1.305000000000000E9    -6.692300973741424E-3   -3.156427846776011E-1
 1.310000000000000E9    -9.617607319809747E-3   -3.218644793619430E-1
 1.315000000000000E9    -8.305909437298406E-3   -3.349898844557790E-1
 1.320000000000000E9    -3.337363266905540E-2   -3.392612382402915E-1
 1.325000000000000E9    -3.670267957436778E-2   -3.285139480100513E-1
 1.330000000000000E9    -3.803428542845674E-2   -3.363345305671926E-1
 1.335000000000000E9    -4.325456651278199E-2   -3.424775269419876E-1
 1.340000000000000E9    -6.024957183174705E-2   -3.397074670118249E-1
 1.345000000000000E9    -6.021517949357391E-2   -3.449225959282031E-1
 1.350000000000000E9    -7.473638573111564E-2   -3.514503160748926E-1
 1.355000000000000E9    -9.243463259044109E-2   -3.432035251608794E-1
 1.360000000000000E9    -9.796537441680213E-2   -3.400374849782085E-1
 1.365000000000000E9    -1.092901902778755E-1   -3.365449138553922E-1
 1.370000000000000E9    -1.097857382916372E-1   -3.328603006140261E-1
 1.375000000000000E9    -1.255476799232474E-1   -3.283828776025040E-1
 1.380000000000000E9    -1.229469707651174E-1   -3.236108967139258E-1
 1.385000000000000E9    -1.284621238186245E-1   -3.194295681815795E-1
 1.390000000000000E9    -1.313795183490557E-1   -3.254218605120529E-1
 1.395000000000000E9    -1.451019141321684E-1   -3.259857640286379E-1
 1.400000000000000E9    -1.581539411748420E-1   -3.180752420856329E-1
 1.405000000000000E9    -1.593575459676193E-1   -3.155560003424563E-1
 1.410000000000000E9    -1.691535434097449E-1   -3.083824438675860E-1
 1.415000000000000E9    -1.756014717355795E-1   -3.109267307552436E-1
 1.420000000000000E9    -1.806937932643638E-1   -2.977967055242051E-1
 1.425000000000000E9    -1.811819537926974E-1   -3.055243685640516E-1
 1.430000000000000E9    -1.990870572874546E-1   -3.027832934779967E-1
 1.435000000000000E9    -2.047596295166601E-1   -2.919706747207561E-1
 1.440000000000000E9    -2.166305020452803E-1   -2.900646759953479E-1
 1.445000000000000E9    -2.268097831706789E-1   -2.837223761040603E-1
 1.450000000000000E9    -2.346467692356122E-1   -2.714535722806276E-1
 1.455000000000000E9    -2.367749735909613E-1   -2.585473089563357E-1
 1.460000000000000E9    -2.340256696995617E-1   -2.561218284309741E-1
 1.465000000000000E9    -2.447711041948325E-1   -2.515315988268461E-1
 1.470000000000000E9    -2.489365214698286E-1   -2.454092056511230E-1
 1.475000000000000E9    -2.558805747165239E-1   -2.368417692107948E-1
 1.480000000000000E9    -2.641495969631860E-1   -2.249219051545819E-1
 1.485000000000000E9    -2.599359333541553E-1   -2.183982313822034E-1
 1.490000000000000E9    -2.663718293795852E-1   -2.107206346857550E-1
 1.495000000000000E9    -2.655143863724432E-1   -2.045921628919937E-1
 1.500000000000000E9    -2.714063202950454E-1   -2.049800859592301E-1
